SOC [%],Voltage [V],Frequency [Hz],Re(Ztot) [Ohm],-Im(Ztot) [Ohm]
100,1.6089379,100003.71,0.173500633333333,-0.0514606783333333
100,1.60893408333333,79433.273,0.171320966666667,-0.0369616083333333
100,1.6089282,63093.824,0.172078583333333,-0.0239799766666667
100,1.60892423333333,50122.477,0.175030566666667,-0.0144701836666667
100,1.60892216666667,39814.059,0.1742995,-0.0059518975
100,1.6089174,31621.139,0.17758395,0.00325937066666667
100,1.60891708333333,25116.91,0.179732316666667,0.00860014933333333
100,1.60891326666667,19948.785,0.181975033333333,0.016186544
100,1.60891166666667,15847.683,0.1851245,0.023614965
100,1.60891166666667,12590.93,0.18874595,0.0279323883333333
100,1.60891008333333,10002.226,0.194769833333333,0.0345949733333333
100,1.60890976666667,7943.999,0.197945083333333,0.04018014
100,1.60890753333333,6307.7339,0.202160816666667,0.0466482933333333
100,1.60890706666667,5011.604,0.208449266666667,0.054722155
100,1.60890611666667,3981.2744,0.21240065,0.062726085
100,1.60890388333333,3161.0117,0.217522066666667,0.071885595
100,1.60890213333333,2510.8032,0.223947683333333,0.0834071433333333
100,1.6089015,1995.6388,0.2286301,0.0976375633333333
100,1.60889863333333,1585.5074,0.233709383333333,0.114798785
100,1.60889371666667,1258.7913,0.23867955,0.137566685
100,1.6088926,1000.3202,0.24358585,0.163829226666667
100,1.60889036666667,794.23785,0.249713916666667,0.199700833333333
100,1.60889593333333,631.00964,0.255404733333333,0.24216005
100,1.60889196666667,501.44418,0.2593039,0.295466183333333
100,1.60888226666667,398.08914,0.268145733333333,0.367156033333333
100,1.6088926,316.31589,0.27674885,0.451520833333333
100,1.60889418333333,251.04433,0.28585295,0.560856816666667
100,1.60887431666667,199.55299,0.299536716666667,0.695241683333333
100,1.60886191666667,158.42841,0.317702316666667,0.865760483333333
100,1.60890531666667,125.84567,0.343930516666667,1.0782241
100,1.60890976666667,100.03201,0.380861283333333,1.34422398333333
100,1.60883443333333,79.415512,0.4339335,1.6734445
100,1.60887655,63.082298,0.508991233333333,2.08615433333333
100,1.6088756,50.144421,0.624605816666667,2.59004766666667
100,1.60878101666667,39.808914,0.804248816666667,3.21010466666667
100,1.6087068,31.629555,1.0297838,3.94967116666667
100,1.60893043333333,25.104433,1.39516273333333,4.87334216666667
100,1.60893121666667,19.955299,1.92878683333333,5.9071745
100,1.60897636666667,15.857577,2.7204485,7.15151916666667
100,1.60875796666667,12.600809,3.861824,8.362723
100,1.60837158333333,10.003201,5.42779866666667,9.65695383333333
100,1.60862286666667,7.9395323,7.37735616666667,10.6827075
100,1.6082937,6.3105812,9.513855,11.3357773333333
100,1.60803746666667,5.014442,11.9756788333333,11.6296768333333
100,1.60814015,3.9778516,14.3800303333333,10.9809901666667
100,1.60803143333333,3.1603963,16.4606653333333,10.2944475
100,1.60790586666667,2.5136747,18.046905,9.16481966666667
100,1.60771433333333,1.9970603,19.2994166666667,8.00108533333333
100,1.60757286666667,1.5846856,20.14848,6.87891
100,1.6075937,1.2596742,20.5933083333333,5.9111405
100,1.60772498333333,1.0000639,20.8397466666667,5.06134766666667
100,1.60790205,0.79443753,21.0124566666667,4.36449916666667
100,1.60804128333333,0.63126212,21.10105,3.88497666666667
100,1.60806353333333,0.50118679,21.05804,3.57770033333333
100,1.60798868333333,0.39774463,21.0022416666667,3.31960516666667
100,1.60785293333333,0.3161931,20.9472066666667,3.12494666666667
100,1.60772736666667,0.25117347,20.8615883333333,3.04915683333333
100,1.60772005,0.19933917,20.6858316666667,3.14749183333333
100,1.60785356666667,0.15846856,20.4705833333333,3.28167883333333
100,1.60807816666667,0.12590654,20.413845,3.4126205
100,1.60838715,0.09990409,20.451515,3.62055433333333
100,1.6049536,100003.71,0.173585133333333,-0.0505104166666667
100,1.60498936666667,79433.273,0.174267266666667,-0.036637205
100,1.6050539,63093.824,0.17547775,-0.0247734983333333
100,1.60511556666667,50122.477,0.1775198,-0.0155541251666667
100,1.60514576666667,39814.059,0.178148883333333,-0.00622178116666667
100,1.60520125,31621.139,0.179882066666667,0.00276095333333333
100,1.60522985,25116.91,0.1811671,0.0102759363333333
100,1.60525513333333,19948.785,0.183724266666667,0.0162168828333333
100,1.6053063,15847.683,0.188312583333333,0.0211119583333333
100,1.60533205,12590.93,0.193698233333333,0.0282235866666667
100,1.6053567,10002.226,0.195250666666667,0.0324629816666667
100,1.60538291666667,7943.999,0.199762616666667,0.0403107933333333
100,1.60541136666667,6307.7339,0.20666255,0.0478578416666667
100,1.60544633333333,5011.604,0.21159415,0.054441025
100,1.60548178333333,3981.2744,0.216743233333333,0.0624262833333333
100,1.60551675,3161.0117,0.221609616666667,0.070197815
100,1.6055495,2510.8032,0.227878583333333,0.0843279266666667
100,1.60558461666667,1995.6388,0.230656866666667,0.096818885
100,1.60561673333333,1585.5074,0.236564116666667,0.114810188333333
100,1.60564788333333,1258.7913,0.2409082,0.137125155
100,1.60567776666667,1000.3202,0.246582666666667,0.16359375
100,1.60570891666667,794.23785,0.2522699,0.197889733333333
100,1.60573483333333,631.00964,0.25863695,0.242565733333333
100,1.60576343333333,501.44418,0.265792266666667,0.296366716666667
100,1.60579475,398.08914,0.27381845,0.364695266666667
100,1.60581986666667,316.31589,0.286032616666667,0.451325733333333
100,1.60584465,251.04433,0.298643933333333,0.556460216666667
100,1.60587025,199.55299,0.31810805,0.692111016666667
100,1.60589981666667,158.42841,0.346849883333333,0.858555
100,1.60592588333333,125.84567,0.387924866666667,1.06733616666667
100,1.60596211666667,100.03201,0.451046116666667,1.32398835
100,1.60599946666667,79.415512,0.537921633333333,1.63775253333333
100,1.606009,63.082298,0.670829383333333,2.0189855
100,1.60603856666667,50.144421,0.8766323,2.47079366666667
100,1.60611805,39.808914,1.16018033333333,2.990688
100,1.606143,31.629555,1.57446686666667,3.57958633333333
100,1.60617716666667,25.104433,2.15108633333333,4.193897
100,1.60616921666667,19.955299,2.89699833333333,4.79249383333333
100,1.60619148333333,15.857577,3.85200683333333,5.275066
100,1.60630416666667,12.600809,4.88965866666667,5.5858815
100,1.60629065,10.003201,6.01258083333333,5.69933133333333
100,1.60633341666667,7.9395323,7.12420333333333,5.60965733333333
100,1.60622708333333,6.3105812,8.20959733333333,5.42733833333333
100,1.60643386666667,5.014442,9.03926783333333,4.99007283333333
100,1.60643211666667,3.9778516,9.75805216666667,4.60820166666667
100,1.60638428333333,3.1603963,10.4177691666667,4.15292366666667
100,1.60639428333333,2.5136747,10.9569308333333,3.78682166666667
100,1.60649745,1.9970603,11.293082,3.413827
100,1.60662936666667,1.5846856,11.5972735,3.02626316666667
100,1.60675048333333,1.2596742,11.8799235,2.70700483333333
100,1.6068519,1.0000639,12.1074663333333,2.44861166666667
100,1.60693136666667,0.79443753,12.3381373333333,2.22550466666667
100,1.6070269,0.63126212,12.5690193333333,2.06422933333333
100,1.60706821666667,0.50118679,12.8095156666667,1.96445916666667
100,1.60717678333333,0.39774463,12.9664496666667,1.9282025
100,1.60735353333333,0.3161931,13.0734253333333,1.90382566666667
100,1.60757748333333,0.25117347,13.2360203333333,1.861136
100,1.60782273333333,0.19933917,13.4942156666667,1.852113
100,1.60806878333333,0.15846856,13.7921968333333,1.89504183333333
100,1.60828305,0.12590654,14.1035448333333,1.97186366666667
100,1.60842848333333,0.09990409,14.4429156666667,2.07614483333333
90,1.48319736666667,100003.71,0.159875581666667,-0.0579347266666667
90,1.48320006666667,79433.273,0.15874671,-0.0458472966666667
90,1.48320086666667,63093.824,0.157890916666667,-0.0355355766666667
90,1.48320118333333,50122.477,0.158000946666667,-0.0271354
90,1.48320086666667,39814.059,0.157714,-0.0209921133333333
90,1.48320071666667,31621.139,0.158383985,-0.0151284126666667
90,1.48320086666667,25116.91,0.157821655,-0.0109843711666667
90,1.48320071666667,19948.785,0.158008316666667,-0.00736571166666667
90,1.48320071666667,15847.683,0.158821295,-0.00381380533333333
90,1.48320023333333,12590.93,0.159905373333333,-0.00165854053333333
90,1.48320118333333,10002.226,0.160384436666667,0.000490572116666667
90,1.48320245,7943.999,0.162117441666667,0.00284389566666667
90,1.48319928333333,6307.7339,0.16232886,0.00429471
90,1.48319928333333,5011.604,0.163864651666667,0.00603046766666667
90,1.4831988,3981.2744,0.165640205,0.00750285383333333
90,1.4831988,3161.0117,0.167026816666667,0.00798545783333333
90,1.48320023333333,2510.8032,0.16829355,0.00960108883333333
90,1.48319991666667,1995.6388,0.169561716666667,0.0107178378333333
90,1.48320023333333,1585.5074,0.171986383333333,0.0112247913333333
90,1.48319896666667,1258.7913,0.173123733333333,0.0128477066666667
90,1.4831996,1000.3202,0.174895566666667,0.0135083683333333
90,1.48320023333333,794.23785,0.177550516666667,0.0147490588333333
90,1.48320006666667,631.00964,0.178527916666667,0.0164029921666667
90,1.48319991666667,501.44418,0.181075183333333,0.0167321583333333
90,1.48319975,398.08914,0.182899866666667,0.0193685933333333
90,1.48320071666667,316.31589,0.1848204,0.0214451433333333
90,1.48320055,251.04433,0.187377033333333,0.023334645
90,1.48320023333333,199.55299,0.189733366666667,0.0262723883333333
90,1.48320086666667,158.42841,0.192415483333333,0.0287533383333333
90,1.48320118333333,125.84567,0.1954426,0.0330644183333333
90,1.48320023333333,100.03201,0.198863916666667,0.0366531316666667
90,1.48320086666667,79.415512,0.201985166666667,0.042160595
90,1.48320006666667,63.082298,0.2055014,0.0482932283333333
90,1.4831996,50.144421,0.209700966666667,0.0561984533333333
90,1.48319911666667,39.808914,0.214426433333333,0.0649998283333333
90,1.48320086666667,31.629555,0.2204445,0.07683818
90,1.48320023333333,25.104433,0.227095683333333,0.0910117916666667
90,1.48320006666667,19.955299,0.235956566666667,0.10720106
90,1.48320135,15.857577,0.246441566666667,0.126038431666667
90,1.48319943333333,12.600809,0.2606921,0.149157325
90,1.48319593333333,10.003201,0.279014366666667,0.1739907
90,1.48319626666667,7.9395323,0.304350116666667,0.202509633333333
90,1.4831934,6.3105812,0.33436405,0.232761183333333
90,1.48318975,5.0080128,0.37252775,0.263420316666667
90,1.48319865,3.9778516,0.418235666666667,0.291353416666667
90,1.48319975,3.1629555,0.4705956,0.3148014
90,1.4832023,2.5136747,0.52744135,0.332772033333333
90,1.48320373333333,1.99553,0.5869714,0.343845483333333
90,1.48319038333333,1.5853286,0.645678433333333,0.348499066666667
90,1.48320023333333,1.2596742,0.701859,0.34534375
90,1.48318671666667,1.0000639,0.754540366666667,0.3407946
90,1.48319323333333,0.79363066,0.80134765,0.33157825
90,1.48320213333333,0.63090527,0.842129066666667,0.320908133333333
90,1.48318975,0.50154078,0.880633666666667,0.3155664
90,1.48318355,0.39774463,0.914690016666667,0.309080416666667
90,1.48319403333333,0.3161931,0.944588733333333,0.303730633333333
90,1.48320675,0.25122195,0.9706432,0.299556333333333
90,1.48320961666667,0.19933917,0.997538966666667,0.2994613
90,1.48320071666667,0.15860692,1.02480943333333,0.303838233333333
90,1.4831907,0.12593903,1.05075535,0.308883366666667
90,1.4831907,0.10007046,1.07589443333333,0.313808066666667
90,1.48313586666667,100003.71,0.159225861666667,-0.0588875666666667
90,1.48318545,79433.273,0.158315926666667,-0.04548567
90,1.48321151666667,63093.824,0.157851248333333,-0.0347732333333333
90,1.48322455,50122.477,0.158313245,-0.0276233
90,1.48323155,39814.059,0.157264053333333,-0.020124385
90,1.48323726666667,31621.139,0.158180176666667,-0.0149427615
90,1.48323996666667,25116.91,0.158433486666667,-0.0109856438333333
90,1.48324076666667,19948.785,0.158463558333333,-0.00730697
90,1.48324378333333,15847.683,0.158957501666667,-0.0040186855
90,1.48324378333333,12590.93,0.159731905,-0.00147549838333333
90,1.48324346666667,10002.226,0.160354843333333,0.0009773067
90,1.48324648333333,7943.999,0.161959926666667,0.00310789883333333
90,1.4832449,6307.7339,0.162961611666667,0.0043574425
90,1.4832441,5011.604,0.16406407,0.00587912083333333
90,1.48324473333333,3981.2744,0.165730893333333,0.00715449633333333
90,1.48324458333333,3161.0117,0.166907983333333,0.00869861116666667
90,1.48324521666667,2510.8032,0.168871716666667,0.00944361333333333
90,1.4832449,1995.6388,0.1703473,0.0109717598333333
90,1.48324426666667,1585.5074,0.17148445,0.0111930221666667
90,1.48324426666667,1258.7913,0.173428133333333,0.013084917
90,1.48324505,1000.3202,0.174843283333333,0.0133851965
90,1.48324441666667,794.23785,0.176770966666667,0.015198237
90,1.48324315,631.00964,0.178576266666667,0.0160675061666667
90,1.4832433,501.44418,0.1811677,0.01757842
90,1.4832433,398.08914,0.1836206,0.01968946
90,1.48324361666667,316.31589,0.185091083333333,0.0209018283333333
90,1.48324315,251.04433,0.1876543,0.0234938783333333
90,1.48324283333333,199.55299,0.189662683333333,0.0261812683333333
90,1.48324346666667,158.42841,0.1928288,0.02887655
90,1.48324155,125.84567,0.1961048,0.0323318633333333
90,1.4832433,100.03201,0.198336616666667,0.0374788933333333
90,1.48324203333333,79.415512,0.2018407,0.0423458466666667
90,1.48324155,63.082298,0.205609916666667,0.04881897
90,1.48324123333333,50.144421,0.20935345,0.0562955433333333
90,1.48324235,39.808914,0.214133866666667,0.0659492816666667
90,1.48324108333333,31.629555,0.219650333333333,0.0770762416666667
90,1.48323996666667,25.104433,0.226677216666667,0.0904650583333333
90,1.4832387,19.955299,0.2350727,0.10689042
90,1.4832371,15.857577,0.24668505,0.126386691666667
90,1.4832406,12.600809,0.26116885,0.148423423333333
90,1.48324235,10.003201,0.279386483333333,0.1746554
90,1.48324013333333,7.9395323,0.30506595,0.202648766666667
90,1.4832433,6.3105812,0.33606665,0.232174833333333
90,1.48324633333333,5.0080128,0.373783033333333,0.261944883333333
90,1.4832352,3.9778516,0.419556733333333,0.290134483333333
90,1.48323456666667,3.1629555,0.472192716666667,0.31306155
90,1.48323091666667,2.5136747,0.528751933333333,0.330571783333333
90,1.48322486666667,1.99553,0.5882839,0.341542566666667
90,1.48323551666667,1.5853286,0.647228166666667,0.344011816666667
90,1.48322535,1.2596742,0.7033612,0.3423431
90,1.48323758333333,1.0000639,0.754859283333333,0.335189383333333
90,1.48322836666667,0.79363066,0.802745583333333,0.328635766666667
90,1.48322168333333,0.63090527,0.8449061,0.320328083333333
90,1.48323583333333,0.50154078,0.881580916666667,0.31174715
90,1.48323838333333,0.39774463,0.915652983333333,0.3053623
90,1.48322645,0.3161931,0.9481941,0.303950683333333
90,1.48321691666667,0.25122195,0.97782755,0.303323766666667
90,1.48322026666667,0.19933917,1.00530235,0.303659216666667
90,1.48323456666667,0.15860692,1.0284315,0.304228183333333
90,1.48324855,0.12593903,1.05046773333333,0.305665366666667
90,1.48325125,0.10007046,1.0752724,0.310877683333333
80,1.42231321666667,100003.71,0.165084143333333,-0.05652075
80,1.42231496666667,79433.273,0.164277385,-0.0442603183333333
80,1.42231686666667,63093.824,0.163702358333333,-0.03448045
80,1.42231878333333,50122.477,0.16378204,-0.02635404
80,1.42231781666667,39814.059,0.16378657,-0.0195160266666667
80,1.42231846666667,31621.139,0.164373248333333,-0.0141329033333333
80,1.42231893333333,25116.91,0.163893958333333,-0.00969943033333333
80,1.42232051666667,19948.785,0.164989968333333,-0.0063903915
80,1.42231941666667,15847.683,0.16528522,-0.00286085433333333
80,1.42231956666667,12590.93,0.165895898333333,-0.0001925264
80,1.42232036666667,10002.226,0.166914216666667,0.000982486483333333
80,1.42232085,7943.999,0.168285483333333,0.00390905983333333
80,1.42232051666667,6307.7339,0.1695892,0.005189782
80,1.422321,5011.604,0.170635616666667,0.0066919625
80,1.42232211666667,3981.2744,0.172513083333333,0.00769864516666667
80,1.42232258333333,3161.0117,0.174736416666667,0.0087611825
80,1.42232243333333,2510.8032,0.175184183333333,0.00967258333333333
80,1.42232386666667,1995.6388,0.177712116666667,0.011409048
80,1.42232481666667,1585.5074,0.178721866666667,0.0119424935
80,1.42232465,1258.7913,0.180369683333333,0.0125296228333333
80,1.42232498333333,1000.3202,0.182037433333333,0.0143499275
80,1.42232545,794.23785,0.184313533333333,0.0146428583333333
80,1.42232656666667,631.00964,0.1863431,0.0154391738333333
80,1.42232783333333,501.44418,0.18826355,0.016679265
80,1.42232831666667,398.08914,0.191069566666667,0.017612935
80,1.42232975,316.31589,0.193243483333333,0.0194912333333333
80,1.42233038333333,251.04433,0.19583235,0.0212445366666667
80,1.42233021666667,199.55299,0.19849005,0.0226328116666667
80,1.42233101666667,158.42841,0.201208766666667,0.0245352283333333
80,1.4223315,125.84567,0.202980816666667,0.027219405
80,1.42233245,100.03201,0.206161166666667,0.0293336733333333
80,1.42233356666667,79.415512,0.210516333333333,0.0317466266666667
80,1.4223334,63.082298,0.2142956,0.03605736
80,1.42233578333333,50.144421,0.217824166666667,0.0401224966666667
80,1.42233641666667,39.808914,0.2221612,0.0451121733333333
80,1.42233705,31.629555,0.226666633333333,0.0507271733333333
80,1.42233705,25.104433,0.231532233333333,0.0581269916666667
80,1.42233768333333,19.955299,0.238193433333333,0.0665333216666667
80,1.42234008333333,15.857577,0.246048316666667,0.0760914983333333
80,1.42233801666667,12.600809,0.254987366666667,0.087394505
80,1.42233736666667,10.003201,0.2660768,0.0998636783333333
80,1.42234198333333,7.9395323,0.28030665,0.11464406
80,1.42233816666667,6.3105812,0.296934366666667,0.12939618
80,1.42233768333333,5.0080128,0.3181728,0.143802435
80,1.42234436666667,3.9778516,0.34270915,0.158793191666667
80,1.42234293333333,3.1629555,0.369734283333333,0.1714378
80,1.42234485,2.5136747,0.399544483333333,0.181726416666667
80,1.42235263333333,1.99553,0.43072645,0.18870865
80,1.42235168333333,1.5853286,0.462681966666667,0.193375066666667
80,1.42235756666667,1.2596742,0.49344405,0.195389233333333
80,1.42235756666667,1.0000639,0.52340285,0.1960359
80,1.42237091666667,0.79363066,0.550745083333333,0.194385283333333
80,1.42237488333333,0.63090527,0.5770733,0.193715
80,1.42237743333333,0.50154078,0.601600533333333,0.19330785
80,1.42239188333333,0.39774463,0.6247431,0.192324683333333
80,1.42241096666667,0.3161931,0.645593483333333,0.1918058
80,1.42242558333333,0.25122195,0.666723883333333,0.19346005
80,1.42243846666667,0.19933917,0.687984633333333,0.197335366666667
80,1.42245738333333,0.15860692,0.7082599,0.201124216666667
80,1.4224871,0.12593903,0.728856,0.205395383333333
80,1.42253065,0.10007046,0.7487355,0.21084515
80,1.42226235,100003.71,0.164463033333333,-0.0565914966666667
80,1.42232433333333,79433.273,0.164213408333333,-0.0447451566666667
80,1.42236518333333,63093.824,0.163255185,-0.0346209933333333
80,1.42239316666667,50122.477,0.163435965,-0.026495315
80,1.42240985,39814.059,0.162752776666667,-0.0199835816666667
80,1.42242351666667,31621.139,0.16357847,-0.0143543593333333
80,1.42243655,25116.91,0.164051533333333,-0.00980453883333333
80,1.42244403333333,19948.785,0.164460161666667,-0.00665691433333333
80,1.42245468333333,15847.683,0.165186385,-0.00294374116666667
80,1.42245991666667,12590.93,0.166062186666667,-0.000140480978333333
80,1.42246628333333,10002.226,0.166737716666667,0.00161643016666667
80,1.422472,7943.999,0.168468533333333,0.00337053516666667
80,1.4224747,6307.7339,0.168906333333333,0.0052621495
80,1.42247883333333,5011.604,0.170502516666667,0.006455234
80,1.42248233333333,3981.2744,0.17189105,0.00767888316666667
80,1.4224863,3161.0117,0.173699233333333,0.00912658
80,1.42248948333333,2510.8032,0.175361433333333,0.0100556985
80,1.4224941,1995.6388,0.17662375,0.010773583
80,1.42249551666667,1585.5074,0.178608383333333,0.0114002525
80,1.42249933333333,1258.7913,0.18063955,0.0130131555
80,1.42250108333333,1000.3202,0.182212516666667,0.0137346138333333
80,1.42250378333333,794.23785,0.1840076,0.0145536921666667
80,1.42250665,631.00964,0.186374166666667,0.0152932318333333
80,1.42250855,501.44418,0.188402366666667,0.016460441
80,1.42251046666667,398.08914,0.1897524,0.0177439
80,1.42251236666667,316.31589,0.193297466666667,0.0198429016666667
80,1.4225146,251.04433,0.195143933333333,0.02065878
